! Synthetic 4-port differential channel for PCIe Gen 5 testing
! Standard differential pair: ports (1+, 3-) → (2+, 4-)
! Represents ~10 inch PCB trace with typical FR-4 loss
! Includes some mode conversion from slight impedance imbalance
# GHz S MA R 50
!freq     S11       S12       S13       S14       S21       S22       S23       S24       S31       S32       S33       S34       S41       S42       S43       S44
! Mag/Ang pairs for all 16 S-parameters
0.1    0.05 180  0.995 -0.5  0.01 90   0.001 45   0.995 -0.5  0.05 180  0.001 -45  0.01 -90   0.01 -90  0.001 45   0.05 180  0.995 -0.5  0.001 -45  0.01 90   0.995 -0.5  0.05 180
0.5    0.06 175  0.990 -2.5  0.015 85  0.002 40   0.990 -2.5  0.06 175  0.002 -40  0.015 -85  0.015 -85 0.002 40   0.06 175  0.990 -2.5  0.002 -40  0.015 85  0.990 -2.5  0.06 175
1.0    0.07 170  0.985 -5.0  0.02 80   0.003 35   0.985 -5.0  0.07 170  0.003 -35  0.02 -80   0.02 -80  0.003 35   0.07 170  0.985 -5.0  0.003 -35  0.02 80   0.985 -5.0  0.07 170
2.0    0.08 160  0.975 -10.0 0.025 70  0.004 30   0.975 -10.0 0.08 160  0.004 -30  0.025 -70  0.025 -70 0.004 30   0.08 160  0.975 -10.0 0.004 -30  0.025 70  0.975 -10.0 0.08 160
3.0    0.09 150  0.960 -15.0 0.03 60   0.005 25   0.960 -15.0 0.09 150  0.005 -25  0.03 -60   0.03 -60  0.005 25   0.09 150  0.960 -15.0 0.005 -25  0.03 60   0.960 -15.0 0.09 150
4.0    0.10 140  0.945 -20.0 0.035 50  0.006 20   0.945 -20.0 0.10 140  0.006 -20  0.035 -50  0.035 -50 0.006 20   0.10 140  0.945 -20.0 0.006 -20  0.035 50  0.945 -20.0 0.10 140
5.0    0.11 130  0.925 -25.0 0.04 40   0.007 15   0.925 -25.0 0.11 130  0.007 -15  0.04 -40   0.04 -40  0.007 15   0.11 130  0.925 -25.0 0.007 -15  0.04 40   0.925 -25.0 0.11 130
6.0    0.12 120  0.905 -30.0 0.045 30  0.008 10   0.905 -30.0 0.12 120  0.008 -10  0.045 -30  0.045 -30 0.008 10   0.12 120  0.905 -30.0 0.008 -10  0.045 30  0.905 -30.0 0.12 120
7.0    0.13 110  0.880 -35.0 0.05 20   0.009 5    0.880 -35.0 0.13 110  0.009 -5   0.05 -20   0.05 -20  0.009 5    0.13 110  0.880 -35.0 0.009 -5   0.05 20   0.880 -35.0 0.13 110
8.0    0.14 100  0.855 -40.0 0.055 10  0.010 0    0.855 -40.0 0.14 100  0.010 0    0.055 -10  0.055 -10 0.010 0    0.14 100  0.855 -40.0 0.010 0    0.055 10  0.855 -40.0 0.14 100
9.0    0.15 90   0.825 -45.0 0.06 0    0.011 -5   0.825 -45.0 0.15 90   0.011 5    0.06 0     0.06 0    0.011 -5   0.15 90   0.825 -45.0 0.011 5    0.06 0    0.825 -45.0 0.15 90
10.0   0.16 80   0.795 -50.0 0.065 -10 0.012 -10  0.795 -50.0 0.16 80   0.012 10   0.065 10   0.065 10  0.012 -10  0.16 80   0.795 -50.0 0.012 10   0.065 -10 0.795 -50.0 0.16 80
11.0   0.17 70   0.760 -55.0 0.070 -20 0.013 -15  0.760 -55.0 0.17 70   0.013 15   0.070 20   0.070 20  0.013 -15  0.17 70   0.760 -55.0 0.013 15   0.070 -20 0.760 -55.0 0.17 70
12.0   0.18 60   0.725 -60.0 0.075 -30 0.014 -20  0.725 -60.0 0.18 60   0.014 20   0.075 30   0.075 30  0.014 -20  0.18 60   0.725 -60.0 0.014 20   0.075 -30 0.725 -60.0 0.18 60
13.0   0.19 50   0.690 -65.0 0.080 -40 0.015 -25  0.690 -65.0 0.19 50   0.015 25   0.080 40   0.080 40  0.015 -25  0.19 50   0.690 -65.0 0.015 25   0.080 -40 0.690 -65.0 0.19 50
14.0   0.20 40   0.655 -70.0 0.085 -50 0.016 -30  0.655 -70.0 0.20 40   0.016 30   0.085 50   0.085 50  0.016 -30  0.20 40   0.655 -70.0 0.016 30   0.085 -50 0.655 -70.0 0.20 40
15.0   0.21 30   0.620 -75.0 0.090 -60 0.017 -35  0.620 -75.0 0.21 30   0.017 35   0.090 60   0.090 60  0.017 -35  0.21 30   0.620 -75.0 0.017 35   0.090 -60 0.620 -75.0 0.21 30
16.0   0.22 20   0.585 -80.0 0.095 -70 0.018 -40  0.585 -80.0 0.22 20   0.018 40   0.095 70   0.095 70  0.018 -40  0.22 20   0.585 -80.0 0.018 40   0.095 -70 0.585 -80.0 0.22 20
17.0   0.23 10   0.550 -85.0 0.100 -80 0.019 -45  0.550 -85.0 0.23 10   0.019 45   0.100 80   0.100 80  0.019 -45  0.23 10   0.550 -85.0 0.019 45   0.100 -80 0.550 -85.0 0.23 10
18.0   0.24 0    0.515 -90.0 0.105 -90 0.020 -50  0.515 -90.0 0.24 0    0.020 50   0.105 90   0.105 90  0.020 -50  0.24 0    0.515 -90.0 0.020 50   0.105 -90 0.515 -90.0 0.24 0
19.0   0.25 -10  0.480 -95.0 0.110 -100 0.021 -55 0.480 -95.0 0.25 -10  0.021 55   0.110 100  0.110 100 0.021 -55  0.25 -10  0.480 -95.0 0.021 55   0.110 -100 0.480 -95.0 0.25 -10
20.0   0.26 -20  0.445 -100.0 0.115 -110 0.022 -60 0.445 -100.0 0.26 -20 0.022 60   0.115 110  0.115 110 0.022 -60  0.26 -20  0.445 -100.0 0.022 60   0.115 -110 0.445 -100.0 0.26 -20
