! Simple lossy transmission line model for PCIe Gen 5 testing
! Represents ~10 inch PCB trace with typical FR-4 loss
! Frequency sweep: 100 MHz to 20 GHz
# GHz S MA R 50
!freq     S11(mag)  S11(ang)  S21(mag)  S21(ang)  S12(mag)  S12(ang)  S22(mag)  S22(ang)
0.1       0.05      180       0.995     -0.5      0.995     -0.5      0.05      180
0.5       0.06      175       0.990     -2.5      0.990     -2.5      0.06      175
1.0       0.07      170       0.985     -5.0      0.985     -5.0      0.07      170
2.0       0.08      160       0.975     -10.0     0.975     -10.0     0.08      160
3.0       0.09      150       0.960     -15.0     0.960     -15.0     0.09      150
4.0       0.10      140       0.945     -20.0     0.945     -20.0     0.10      140
5.0       0.11      130       0.925     -25.0     0.925     -25.0     0.11      130
6.0       0.12      120       0.905     -30.0     0.905     -30.0     0.12      120
7.0       0.13      110       0.880     -35.0     0.880     -35.0     0.13      110
8.0       0.14      100       0.855     -40.0     0.855     -40.0     0.14      100
9.0       0.15       90       0.825     -45.0     0.825     -45.0     0.15       90
10.0      0.16       80       0.795     -50.0     0.795     -50.0     0.16       80
11.0      0.17       70       0.760     -55.0     0.760     -55.0     0.17       70
12.0      0.18       60       0.725     -60.0     0.725     -60.0     0.18       60
13.0      0.19       50       0.690     -65.0     0.690     -65.0     0.19       50
14.0      0.20       40       0.655     -70.0     0.655     -70.0     0.20       40
15.0      0.21       30       0.620     -75.0     0.620     -75.0     0.21       30
16.0      0.22       20       0.585     -80.0     0.585     -80.0     0.22       20
17.0      0.23       10       0.550     -85.0     0.550     -85.0     0.23       10
18.0      0.24        0       0.515     -90.0     0.515     -90.0     0.24        0
19.0      0.25      -10       0.480     -95.0     0.480     -95.0     0.25      -10
20.0      0.26      -20       0.445    -100.0     0.445    -100.0     0.26      -20
